 ****** HSPICE -- P-2019.06-SP1-1 win64 (Sep 27 2019) ******                    
  Copyright (c) 1986 - 2022 by Synopsys, Inc. All Rights Reserved.              
  This software and the associated documentation are proprietary
  to Synopsys, Inc. This software may only be used in accordance
  with the terms and conditions of a written license agreement with
  Synopsys, Inc. All other use, reproduction, or distribution of
  this software is strictly prohibited.
  Input File: bus8bit8seg.sp                                                    
  Command line options: C:\synopsys\Hspice_P-2019.06-SP1-1\WIN64\hspice.com -i bus8bit8seg.sp -o D:\workspace\circuit_analysis\project3-5\src\bus8bit8seg.lis
  Start time: Sun Nov 27 16:19:43 2022
  lic:  
  lic: FLEXlm: SDK_12.3 
  lic: USER:   44919                HOSTNAME: CZJ 
  lic: HOSTID: "3cf01186422d"       PID:      21824 
  lic: Using FLEXlm license file: 
  lic: 27000@CZJ 
  lic: Checkout 1 hspice 
  lic: License/Maintenance for hspice will expire on 30-dec-2030/2030.12 
  lic: 1(in_use)/99(total) FLOATING license(s) on SERVER 27000@CZJ 
  lic:   
1****** HSPICE -- P-2019.06-SP1-1 win64 (Sep 27 2019) ******                    
 ******  
 *a bus interconnect circuit with 10 bus line 8 segment.

 ****** circuit name directory
 circuit number to circuit name directory
   number circuitname                     definition         multiplier
        0 main circuit
        1 x1.                             intercon           1.00 
  **info** (bus8bit8seg.sp:12) DC voltage reset to initial transient source value in source 0:iin1. new dc=0.0000D+00
  **warning** For .option genk=1, 0 implicit mutual inductors are generated!

             
 Summary of Linear Res Distribution Info
 -----------------------------------------------------
 |Range                        |Total     |Percent(%)|
 |-----------------------------+----------+----------|
 |1.000000e-01  ~  1.000000e+00|3         |3.2967    |
 |1.000000e+00  ~  1.000000e+03|88        |96.7033   |
 -----------------------------------------------------
              
             
 Summary of Linear Cap Distribution Info
 -----------------------------------------------------
 |Range                        |Total     |Percent(%)|
 |-----------------------------+----------+----------|
 |1.000000e-15  ~  1.000000e-14|142       |34.3826   |
 |1.000000e-14  ~  1.000000e-13|263       |63.6804   |
 |1.000000e-13  ~  1.000000e-12|8         |1.9370    |
 -----------------------------------------------------
              
             
 Summary of Detailed RC Type Statistics
 -------------------------
 |Element Type|Number    |
 |------------+----------|
 |Constant Res|91        |
 |            |          |
 |Constant Cap|413       |
 -------------------------
              
  
      
 *****************************************************************
 ******  option summary
 ******
 runlvl  = 3         bypass  = 2.0000    

 **info** rebuilding matrix with pivot option

 **info** dc convergence successful at Newton-Raphson method 
 ******  
 *a bus interconnect circuit with 10 bus line 8 segment.

 ****** operating point information tnom=  25.000 temp=  25.000 ******
 ****** operating point status is voltage   simulation time is     0.     
    node    =voltage      node    =voltage      node    =voltage

 +0:tdn1a1  =   0.      0:tdn1a9  =   0.      0:tdn2a1  =   0.     
 +0:tdn2a9  =   0.      0:tdn3a1  =   0.      0:tdn3a9  =   0.     
 +0:tdn4a1  =   0.      0:tdn4a9  =   0.      0:tdn5a1  =   0.     
 +0:tdn5a9  =   0.      0:tdn6a1  =   0.      0:tdn6a9  =   0.     
 +0:tdn7a1  =   0.      0:tdn7a9  =   0.      0:tdn8a1  =   0.     
 +0:tdn8a9  =   0.      0:tdnga1  =   0.      0:tdnga9  =   0.     
 +0:tdnva1  =   0.      0:tdnva9  =   0.      1:tdn1a10 =   0.     
 +1:tdn1a11 =   0.      1:tdn1a12 =   0.      1:tdn1a13 =   0.     
 +1:tdn1a14 =   0.      1:tdn1a15 =   0.      1:tdn1a16 =   0.     
 +1:tdn1a2  =   0.      1:tdn1a3  =   0.      1:tdn1a4  =   0.     
 +1:tdn1a5  =   0.      1:tdn1a6  =   0.      1:tdn1a7  =   0.     
 +1:tdn1a8  =   0.      1:tdn1a9  =   0.      1:tdn2a10 =   0.     
 +1:tdn2a11 =   0.      1:tdn2a12 =   0.      1:tdn2a13 =   0.     
 +1:tdn2a14 =   0.      1:tdn2a15 =   0.      1:tdn2a16 =   0.     
 +1:tdn2a2  =   0.      1:tdn2a3  =   0.      1:tdn2a4  =   0.     
 +1:tdn2a5  =   0.      1:tdn2a6  =   0.      1:tdn2a7  =   0.     
 +1:tdn2a8  =   0.      1:tdn2a9  =   0.      1:tdn3a10 =   0.     
 +1:tdn3a11 =   0.      1:tdn3a12 =   0.      1:tdn3a13 =   0.     
 +1:tdn3a14 =   0.      1:tdn3a15 =   0.      1:tdn3a16 =   0.     
 +1:tdn3a2  =   0.      1:tdn3a3  =   0.      1:tdn3a4  =   0.     
 +1:tdn3a5  =   0.      1:tdn3a6  =   0.      1:tdn3a7  =   0.     
 +1:tdn3a8  =   0.      1:tdn3a9  =   0.      1:tdn4a10 =   0.     
 +1:tdn4a11 =   0.      1:tdn4a12 =   0.      1:tdn4a13 =   0.     
 +1:tdn4a14 =   0.      1:tdn4a15 =   0.      1:tdn4a16 =   0.     
 +1:tdn4a2  =   0.      1:tdn4a3  =   0.      1:tdn4a4  =   0.     
 +1:tdn4a5  =   0.      1:tdn4a6  =   0.      1:tdn4a7  =   0.     
 +1:tdn4a8  =   0.      1:tdn4a9  =   0.      1:tdn5a10 =   0.     
 +1:tdn5a11 =   0.      1:tdn5a12 =   0.      1:tdn5a13 =   0.     
 +1:tdn5a14 =   0.      1:tdn5a15 =   0.      1:tdn5a16 =   0.     
 +1:tdn5a2  =   0.      1:tdn5a3  =   0.      1:tdn5a4  =   0.     
 +1:tdn5a5  =   0.      1:tdn5a6  =   0.      1:tdn5a7  =   0.     
 +1:tdn5a8  =   0.      1:tdn5a9  =   0.      1:tdn6a10 =   0.     
 +1:tdn6a11 =   0.      1:tdn6a12 =   0.      1:tdn6a13 =   0.     
 +1:tdn6a14 =   0.      1:tdn6a15 =   0.      1:tdn6a16 =   0.     
 +1:tdn6a2  =   0.      1:tdn6a3  =   0.      1:tdn6a4  =   0.     
 +1:tdn6a5  =   0.      1:tdn6a6  =   0.      1:tdn6a7  =   0.     
 +1:tdn6a8  =   0.      1:tdn6a9  =   0.      1:tdn7a10 =   0.     
 +1:tdn7a11 =   0.      1:tdn7a12 =   0.      1:tdn7a13 =   0.     
 +1:tdn7a14 =   0.      1:tdn7a15 =   0.      1:tdn7a16 =   0.     
 +1:tdn7a2  =   0.      1:tdn7a3  =   0.      1:tdn7a4  =   0.     
 +1:tdn7a5  =   0.      1:tdn7a6  =   0.      1:tdn7a7  =   0.     
 +1:tdn7a8  =   0.      1:tdn7a9  =   0.      1:tdn8a10 =   0.     
 +1:tdn8a11 =   0.      1:tdn8a12 =   0.      1:tdn8a13 =   0.     
 +1:tdn8a14 =   0.      1:tdn8a15 =   0.      1:tdn8a16 =   0.     
 +1:tdn8a2  =   0.      1:tdn8a3  =   0.      1:tdn8a4  =   0.     
 +1:tdn8a5  =   0.      1:tdn8a6  =   0.      1:tdn8a7  =   0.     
 +1:tdn8a8  =   0.      1:tdn8a9  =   0.      1:tdnga10 =   0.     
 +1:tdnga11 =   0.      1:tdnga12 =   0.      1:tdnga13 =   0.     
 +1:tdnga14 =   0.      1:tdnga15 =   0.      1:tdnga16 =   0.     
 +1:tdnga2  =   0.      1:tdnga3  =   0.      1:tdnga4  =   0.     
 +1:tdnga5  =   0.      1:tdnga6  =   0.      1:tdnga7  =   0.     
 +1:tdnga8  =   0.      1:tdnga9  =   0.      1:tdnva10 =   0.     
 +1:tdnva11 =   0.      1:tdnva12 =   0.      1:tdnva13 =   0.     
 +1:tdnva14 =   0.      1:tdnva15 =   0.      1:tdnva16 =   0.     
 +1:tdnva2  =   0.      1:tdnva3  =   0.      1:tdnva4  =   0.     
 +1:tdnva5  =   0.      1:tdnva6  =   0.      1:tdnva7  =   0.     
 +1:tdnva8  =   0.      1:tdnva9  =   0.     

 ******
 *a bus interconnect circuit with 10 bus line 8 segment.

 ****** transient analysis tnom=  25.000 temp=  25.000 ******
x

 time         voltage    voltage    voltage    voltage   
             tdn1a9     tdn2a9     tdn3a9     tdn4a9     
    0.          0.         0.         0.         0.      
    1.00000p    0.         0.         0.         0.      
    2.00000p    0.         0.         0.         0.      
    3.00000p    0.         0.         0.         0.      
    4.00000p    0.         0.         0.         0.      
    5.00000p    0.         0.         0.         0.      
    6.00000p    0.         0.         0.         0.      
    7.00000p    0.         0.         0.         0.      
    8.00000p    0.         0.         0.         0.      
    9.00000p    0.         0.         0.         0.      
   10.00000p    0.         0.         0.         0.      
   11.00000p    0.         0.         0.         0.      
   12.00000p    0.         0.         0.         0.      
   13.00000p    0.         0.         0.         0.      
   14.00000p    0.         0.         0.         0.      
   15.00000p    0.         0.         0.         0.      
   16.00000p    0.         0.         0.         0.      
   17.00000p    0.         0.         0.         0.      
   18.00000p    0.         0.         0.         0.      
   19.00000p    0.         0.         0.         0.      
   20.00000p    0.         0.         0.         0.      
   21.00000p    0.         0.         0.         0.      
   22.00000p    0.         0.         0.         0.      
   23.00000p    0.         0.         0.         0.      
   24.00000p    0.         0.         0.         0.      
   25.00000p    0.         0.         0.         0.      
   26.00000p    0.         0.         0.         0.      
   27.00000p    0.         0.         0.         0.      
   28.00000p    0.         0.         0.         0.      
   29.00000p    0.         0.         0.         0.      
   30.00000p    0.         0.         0.         0.      
   31.00000p    0.         0.         0.         0.      
   32.00000p    0.         0.         0.         0.      
   33.00000p    0.         0.         0.         0.      
   34.00000p    0.         0.         0.         0.      
   35.00000p    0.         0.         0.         0.      
   36.00000p    0.         0.         0.         0.      
   37.00000p    0.         0.         0.         0.      
   38.00000p    0.         0.         0.         0.      
   39.00000p    0.         0.         0.         0.      
   40.00000p    0.         0.         0.         0.      
   41.00000p    0.         0.         0.         0.      
   42.00000p    0.         0.         0.         0.      
   43.00000p    0.         0.         0.         0.      
   44.00000p    0.         0.         0.         0.      
   45.00000p    0.         0.         0.         0.      
   46.00000p    0.         0.         0.         0.      
   47.00000p    0.         0.         0.         0.      
   48.00000p    0.         0.         0.         0.      
   49.00000p    0.         0.         0.         0.      
   50.00000p    0.         0.         0.         0.      
   51.00000p  -18.0086m  -17.0598m  -17.2837m  -17.3260m 
   52.00000p  -36.0173m  -34.1196m  -34.5675m  -34.6519m 
   53.00000p  -54.0259m  -51.1794m  -51.8512m  -51.9779m 
   54.00000p  -72.0346m  -68.2391m  -69.1349m  -69.3039m 
   55.00000p  -90.0432m  -85.2989m  -86.4187m  -86.6299m 
   56.00000p -108.0518m -102.3587m -103.7024m -103.9558m 
   57.00000p -126.0605m -119.4185m -120.9861m -121.2818m 
   58.00000p -146.4785m -136.0431m -138.3906m -138.8841m 
   59.00000p -169.3060m -152.2324m -155.9157m -156.7626m 
   60.00000p -192.1335m -168.4217m -173.4409m -174.6412m 
   61.00000p -214.9610m -184.6110m -190.9660m -192.5198m 
   62.00000p -237.7884m -200.8003m -208.4912m -210.3983m 
   63.00000p -260.6159m -216.9896m -226.0163m -228.2769m 
   64.00000p -283.4434m -233.1789m -243.5415m -246.1555m 
   65.00000p -306.2709m -249.3682m -261.0667m -264.0341m 
   66.00000p -329.0984m -265.5575m -278.5918m -281.9126m 
   67.00000p -351.9258m -281.7469m -296.1170m -299.7912m 
   68.00000p -374.7533m -297.9362m -313.6421m -317.6698m 
   69.00000p -397.5808m -314.1255m -331.1673m -335.5483m 
   70.00000p -420.4083m -330.3148m -348.6924m -353.4269m 
   71.00000p -443.2357m -346.5041m -366.2176m -371.3055m 
   72.00000p -466.0632m -362.6934m -383.7427m -389.1840m 
   73.00000p -488.8907m -378.8827m -401.2679m -407.0626m 
   74.00000p -537.9311m -388.2601m -415.4882m -423.6651m 
   75.00000p -604.7485m -393.0178m -427.4672m -439.4021m 
   76.00000p -671.5660m -397.7755m -439.4462m -455.1391m 
   77.00000p -738.3834m -402.5332m -451.4252m -470.8761m 
   78.00000p -805.2009m -407.2908m -463.4042m -486.6132m 
   79.00000p -872.0183m -412.0485m -475.3832m -502.3502m 
   80.00000p -938.8358m -416.8062m -487.3622m -518.0872m 
   81.00000p   -1.0057  -421.5639m -499.3412m -533.8242m 
   82.00000p   -1.0725  -426.3216m -511.3202m -549.5613m 
   83.00000p   -1.1393  -431.0792m -523.2992m -565.2983m 
   84.00000p   -1.2061  -435.8369m -535.2782m -581.0353m 
   85.00000p   -1.2729  -440.5946m -547.2572m -596.7723m 
   86.00000p   -1.3397  -445.3523m -559.2362m -612.5093m 
   87.00000p   -1.4066  -450.1100m -571.2152m -628.2464m 
   88.00000p   -1.4734  -454.8676m -583.1942m -643.9834m 
   89.00000p   -1.5402  -459.6253m -595.1732m -659.7204m 
   90.00000p   -1.6070  -464.3830m -607.1522m -675.4574m 
   91.00000p   -1.6738  -469.1407m -619.1312m -691.1945m 
   92.00000p   -1.7406  -473.8984m -631.1102m -706.9315m 
   93.00000p   -1.8075  -478.6561m -643.0892m -722.6685m 
   94.00000p   -1.8743  -483.4137m -655.0682m -738.4055m 
   95.00000p   -1.9411  -488.1714m -667.0472m -754.1425m 
   96.00000p   -2.0079  -492.9291m -679.0262m -769.8796m 
   97.00000p   -2.0747  -497.6868m -691.0052m -785.6166m 
   98.00000p   -2.1415  -502.4445m -702.9842m -801.3536m 
   99.00000p   -2.2084  -507.2021m -714.9632m -817.0906m 
  100.00000p   -2.2752  -511.9598m -726.9422m -832.8277m 
  101.00000p   -2.4236  -487.8526m -705.0205m -818.5840m 
  102.00000p   -2.5719  -463.7454m -683.0988m -804.3404m 
  103.00000p   -2.7203  -439.6382m -661.1772m -790.0967m 
  104.00000p   -2.8687  -415.5309m -639.2555m -775.8530m 
  105.00000p   -3.0170  -391.4237m -617.3338m -761.6094m 
  106.00000p   -3.1654  -367.3165m -595.4121m -747.3657m 
  107.00000p   -3.3137  -343.2093m -573.4905m -733.1221m 
  108.00000p   -3.4621  -319.1020m -551.5688m -718.8784m 
  109.00000p   -3.6105  -294.9948m -529.6471m -704.6348m 
  110.00000p   -3.7588  -270.8876m -507.7255m -690.3911m 
  111.00000p   -3.9072  -246.7804m -485.8038m -676.1475m 
  112.00000p   -4.0556  -222.6732m -463.8821m -661.9038m 
  113.00000p   -4.2039  -198.5659m -441.9604m -647.6602m 
  114.00000p   -4.3523  -174.4587m -420.0388m -633.4165m 
  115.00000p   -4.5007  -150.3515m -398.1171m -619.1729m 
  116.00000p   -4.6490  -126.2443m -376.1954m -604.9292m 
  117.00000p   -4.7974  -102.1370m -354.2737m -590.6856m 
  118.00000p   -4.9458   -78.0298m -332.3521m -576.4419m 
  119.00000p   -5.0941   -53.9226m -310.4304m -562.1983m 
  120.00000p   -5.2425   -29.8154m -288.5087m -547.9546m 
  121.00000p   -5.3992    -7.2757m -264.8434m -531.4780m 
  122.00000p   -5.5582    14.8161m -240.6799m -514.3633m 
  123.00000p   -5.7172    36.9079m -216.5164m -497.2486m 
  124.00000p   -5.8763    58.9997m -192.3529m -480.1339m 
  125.00000p   -6.0353    81.0914m -168.1894m -463.0193m 
  126.00000p   -6.1943   103.1832m -144.0258m -445.9046m 
  127.00000p   -6.3534   125.2750m -119.8623m -428.7899m 
  128.00000p   -6.5124   147.3668m  -95.6988m -411.6753m 
  129.00000p   -6.6714   169.4586m  -71.5353m -394.5606m 
  130.00000p   -6.8305   191.5504m  -47.3718m -377.4459m 
  131.00000p   -6.9895   213.6422m  -23.2082m -360.3312m 
  132.00000p   -7.1339   225.2031m   -2.7361m -342.3889m 
  133.00000p   -7.2607   224.1271m   13.3064m -323.4534m 
  134.00000p   -7.3875   223.0511m   29.3489m -304.5179m 
  135.00000p   -7.5143   221.9751m   45.3914m -285.5823m 
  136.00000p   -7.6411   220.8991m   61.4339m -266.6468m 
  137.00000p   -7.7679   219.8232m   77.4764m -247.7113m 
  138.00000p   -7.8947   218.7472m   93.5188m -228.7758m 
  139.00000p   -8.0215   217.6712m  109.5613m -209.8402m 
  140.00000p   -8.1483   216.5952m  125.6038m -190.9047m 
  141.00000p   -8.2751   215.5192m  141.6463m -171.9692m 
  142.00000p   -8.4019   214.4432m  157.6888m -153.0337m 
  143.00000p   -8.5288   213.3672m  173.7313m -134.0981m 
  144.00000p   -8.6556   212.2912m  189.7738m -115.1626m 
  145.00000p   -8.7824   211.2152m  205.8163m  -96.2271m 
  146.00000p   -8.9092   210.1392m  221.8588m  -77.2916m 
  147.00000p   -9.0360   209.0632m  237.9013m  -58.3560m 
  148.00000p   -9.1628   207.9872m  253.9438m  -39.4205m 
  149.00000p   -9.2896   206.9112m  269.9863m  -20.4850m 
  150.00000p   -9.4164   205.8352m  286.0288m   -1.5495m 
  151.00000p   -9.5432   204.7592m  302.0712m   17.3861m 
  152.00000p   -9.6700   203.6832m  318.1137m   36.3216m 
  153.00000p   -9.7968   202.6073m  334.1562m   55.2571m 
  154.00000p   -9.9236   201.5313m  350.1987m   74.1926m 
  155.00000p  -10.0504   200.4553m  366.2412m   93.1282m 
  156.00000p  -10.1772   199.3793m  382.2837m  112.0637m 
  157.00000p  -10.3040   198.3033m  398.3262m  130.9992m 
  158.00000p  -10.4308   197.2273m  414.3687m  149.9347m 
  159.00000p  -10.5576   196.1513m  430.4112m  168.8702m 
  160.00000p  -10.6844   195.0753m  446.4537m  187.8058m 
  161.00000p  -10.8112   193.9993m  462.4962m  206.7413m 
  162.00000p  -10.9380   192.9233m  478.5387m  225.6768m 
  163.00000p  -11.0648   191.8473m  494.5812m  244.6123m 
  164.00000p  -11.1917   190.7713m  510.6236m  263.5479m 
  165.00000p  -11.3185   189.6953m  526.6661m  282.4834m 
  166.00000p  -11.4453   188.6193m  542.7086m  301.4189m 
  167.00000p  -11.5721   187.5433m  558.7511m  320.3544m 
  168.00000p  -11.6742   181.9285m  569.3071m  336.2365m 
  169.00000p  -11.6891   160.2432m  560.4372m  341.3073m 
  170.00000p  -11.7040   138.5579m  551.5674m  346.3780m 
  171.00000p  -11.7189   116.8727m  542.6975m  351.4488m 
  172.00000p  -11.7338    95.1874m  533.8276m  356.5196m 
  173.00000p  -11.7487    73.5021m  524.9578m  361.5903m 
  174.00000p  -11.7636    51.8168m  516.0879m  366.6611m 
  175.00000p  -11.7785    30.1315m  507.2181m  371.7319m 
  176.00000p  -11.7934     8.4463m  498.3482m  376.8027m 
  177.00000p  -11.8082   -13.2390m  489.4783m  381.8734m 
  178.00000p  -11.8231   -34.9243m  480.6085m  386.9442m 
  179.00000p  -11.8380   -56.6096m  471.7386m  392.0150m 
  180.00000p  -11.8529   -78.2948m  462.8688m  397.0858m 
  181.00000p  -11.8678   -99.9801m  453.9989m  402.1565m 
  182.00000p  -11.8827  -121.6654m  445.1290m  407.2273m 
  183.00000p  -11.8976  -143.3507m  436.2592m  412.2981m 
  184.00000p  -11.9125  -165.0360m  427.3893m  417.3688m 
  185.00000p  -11.9274  -186.7212m  418.5195m  422.4396m 
  186.00000p  -11.9423  -208.4065m  409.6496m  427.5104m 
  187.00000p  -11.9572  -230.0918m  400.7797m  432.5812m 
  188.00000p  -11.9720  -251.7771m  391.9099m  437.6519m 
  189.00000p  -11.9869  -273.4624m  383.0400m  442.7227m 
  190.00000p  -12.0018  -295.1476m  374.1702m  447.7935m 
  191.00000p  -12.0167  -316.8329m  365.3003m  452.8642m 
  192.00000p  -12.0316  -338.5182m  356.4304m  457.9350m 
  193.00000p  -12.0465  -360.2035m  347.5606m  463.0058m 
  194.00000p  -12.0614  -381.8887m  338.6907m  468.0766m 
  195.00000p  -12.0763  -403.5740m  329.8209m  473.1473m 
  196.00000p  -12.0912  -425.2593m  320.9510m  478.2181m 
  197.00000p  -12.1061  -446.9446m  312.0812m  483.2889m 
  198.00000p  -12.1210  -468.6299m  303.2113m  488.3597m 
  199.00000p  -12.1358  -490.3151m  294.3414m  493.4304m 
  200.00000p  -12.1507  -512.0004m  285.4716m  498.5012m 
  201.00000p  -12.1656  -533.6857m  276.6017m  503.5720m 
  202.00000p  -12.1805  -555.3710m  267.7319m  508.6427m 
  203.00000p  -12.1954  -577.0563m  258.8620m  513.7135m 
  204.00000p  -12.2103  -598.7415m  249.9921m  518.7843m 
  205.00000p  -12.2252  -620.4268m  241.1223m  523.8551m 
  206.00000p  -12.2401  -642.1121m  232.2524m  528.9258m 
  207.00000p  -12.2550  -663.7974m  223.3826m  533.9966m 
  208.00000p  -12.2699  -685.4826m  214.5127m  539.0674m 
  209.00000p  -12.2848  -707.1679m  205.6428m  544.1381m 
