 ****** HSPICE -- P-2019.06-SP1-1 win64 (Sep 27 2019) ******                    
  Copyright (c) 1986 - 2022 by Synopsys, Inc. All Rights Reserved.              
  This software and the associated documentation are proprietary
  to Synopsys, Inc. This software may only be used in accordance
  with the terms and conditions of a written license agreement with
  Synopsys, Inc. All other use, reproduction, or distribution of
  this software is strictly prohibited.
  Input File: bus8bit8seg_p.sp                                                  
  Command line options: C:\synopsys\Hspice_P-2019.06-SP1-1\WIN64\hspice.com -i bus8bit8seg_p.sp -o F:\Benchmark\bus8bit8seg_p.lis
  Start time: Tue Dec  6 18:09:47 2022
  lic:  
  lic: FLEXlm: SDK_12.3 
  lic: USER:   44919                HOSTNAME: CZJ 
  lic: HOSTID: "000000000000"       PID:      7596 
  lic: Using FLEXlm license file: 
  lic: 27000@CZJ 
  lic: Checkout 1 hspice 
  lic: License/Maintenance for hspice will expire on 30-dec-2030/2030.12 
  lic: 1(in_use)/99(total) FLOATING license(s) on SERVER 27000@CZJ 
  lic:   
1****** HSPICE -- P-2019.06-SP1-1 win64 (Sep 27 2019) ******                    
 ******  
 *a bus interconnect circuit with 10 bus line 8 segment.

 ****** circuit name directory
 circuit number to circuit name directory
   number circuitname                     definition         multiplier
        0 main circuit
        1 x1.                             intercon           1.00 
  **info** (bus8bit8seg_p.sp:13) DC voltage reset to initial transient source value in source 0:iin1. new dc=0.0000D+00
  **warning** For .option genk=1, 0 implicit mutual inductors are generated!

             
 Summary of Linear Res Distribution Info
 -----------------------------------------------------
 |Range                        |Total     |Percent(%)|
 |-----------------------------+----------+----------|
 |1.000000e-01  ~  1.000000e+00|3         |3.2967    |
 |1.000000e+00  ~  1.000000e+03|88        |96.7033   |
 -----------------------------------------------------
              
             
 Summary of Linear Cap Distribution Info
 -----------------------------------------------------
 |Range                        |Total     |Percent(%)|
 |-----------------------------+----------+----------|
 |1.000000e-15  ~  1.000000e-14|142       |34.3826   |
 |1.000000e-14  ~  1.000000e-13|263       |63.6804   |
 |1.000000e-13  ~  1.000000e-12|8         |1.9370    |
 -----------------------------------------------------
              
             
 Summary of Detailed RC Type Statistics
 -------------------------
 |Element Type|Number    |
 |------------+----------|
 |Constant Res|91        |
 |            |          |
 |Constant Cap|413       |
 -------------------------
              
  
      
 *****************************************************************
 ******  option summary
 ******
 runlvl  = 3         bypass  = 2.0000    

 **info** rebuilding matrix with pivot option

 **info** dc convergence successful at Newton-Raphson method 
 ******  
 *a bus interconnect circuit with 10 bus line 8 segment.

 ****** operating point information tnom=  25.000 temp=  25.000 ******
 ****** operating point status is voltage   simulation time is     0.     
    node    =voltage      node    =voltage      node    =voltage

 +0:tdn1a1  =   0.      0:tdn1a9  =   0.      0:tdn2a1  =   0.     
 +0:tdn2a9  =   0.      0:tdn3a1  =   0.      0:tdn3a9  =   0.     
 +0:tdn4a1  =   0.      0:tdn4a9  =   0.      0:tdn5a1  =   0.     
 +0:tdn5a9  =   0.      0:tdn6a1  =   0.      0:tdn6a9  =   0.     
 +0:tdn7a1  =   0.      0:tdn7a9  =   0.      0:tdn8a1  =   0.     
 +0:tdn8a9  =   0.      0:tdnga1  =   0.      0:tdnga9  =   0.     
 +0:tdnva1  =   0.      0:tdnva9  =   0.      1:tdn1a10 =   0.     
 +1:tdn1a11 =   0.      1:tdn1a12 =   0.      1:tdn1a13 =   0.     
 +1:tdn1a14 =   0.      1:tdn1a15 =   0.      1:tdn1a16 =   0.     
 +1:tdn1a2  =   0.      1:tdn1a3  =   0.      1:tdn1a4  =   0.     
 +1:tdn1a5  =   0.      1:tdn1a6  =   0.      1:tdn1a7  =   0.     
 +1:tdn1a8  =   0.      1:tdn1a9  =   0.      1:tdn2a10 =   0.     
 +1:tdn2a11 =   0.      1:tdn2a12 =   0.      1:tdn2a13 =   0.     
 +1:tdn2a14 =   0.      1:tdn2a15 =   0.      1:tdn2a16 =   0.     
 +1:tdn2a2  =   0.      1:tdn2a3  =   0.      1:tdn2a4  =   0.     
 +1:tdn2a5  =   0.      1:tdn2a6  =   0.      1:tdn2a7  =   0.     
 +1:tdn2a8  =   0.      1:tdn2a9  =   0.      1:tdn3a10 =   0.     
 +1:tdn3a11 =   0.      1:tdn3a12 =   0.      1:tdn3a13 =   0.     
 +1:tdn3a14 =   0.      1:tdn3a15 =   0.      1:tdn3a16 =   0.     
 +1:tdn3a2  =   0.      1:tdn3a3  =   0.      1:tdn3a4  =   0.     
 +1:tdn3a5  =   0.      1:tdn3a6  =   0.      1:tdn3a7  =   0.     
 +1:tdn3a8  =   0.      1:tdn3a9  =   0.      1:tdn4a10 =   0.     
 +1:tdn4a11 =   0.      1:tdn4a12 =   0.      1:tdn4a13 =   0.     
 +1:tdn4a14 =   0.      1:tdn4a15 =   0.      1:tdn4a16 =   0.     
 +1:tdn4a2  =   0.      1:tdn4a3  =   0.      1:tdn4a4  =   0.     
 +1:tdn4a5  =   0.      1:tdn4a6  =   0.      1:tdn4a7  =   0.     
 +1:tdn4a8  =   0.      1:tdn4a9  =   0.      1:tdn5a10 =   0.     
 +1:tdn5a11 =   0.      1:tdn5a12 =   0.      1:tdn5a13 =   0.     
 +1:tdn5a14 =   0.      1:tdn5a15 =   0.      1:tdn5a16 =   0.     
 +1:tdn5a2  =   0.      1:tdn5a3  =   0.      1:tdn5a4  =   0.     
 +1:tdn5a5  =   0.      1:tdn5a6  =   0.      1:tdn5a7  =   0.     
 +1:tdn5a8  =   0.      1:tdn5a9  =   0.      1:tdn6a10 =   0.     
 +1:tdn6a11 =   0.      1:tdn6a12 =   0.      1:tdn6a13 =   0.     
 +1:tdn6a14 =   0.      1:tdn6a15 =   0.      1:tdn6a16 =   0.     
 +1:tdn6a2  =   0.      1:tdn6a3  =   0.      1:tdn6a4  =   0.     
 +1:tdn6a5  =   0.      1:tdn6a6  =   0.      1:tdn6a7  =   0.     
 +1:tdn6a8  =   0.      1:tdn6a9  =   0.      1:tdn7a10 =   0.     
 +1:tdn7a11 =   0.      1:tdn7a12 =   0.      1:tdn7a13 =   0.     
 +1:tdn7a14 =   0.      1:tdn7a15 =   0.      1:tdn7a16 =   0.     
 +1:tdn7a2  =   0.      1:tdn7a3  =   0.      1:tdn7a4  =   0.     
 +1:tdn7a5  =   0.      1:tdn7a6  =   0.      1:tdn7a7  =   0.     
 +1:tdn7a8  =   0.      1:tdn7a9  =   0.      1:tdn8a10 =   0.     
 +1:tdn8a11 =   0.      1:tdn8a12 =   0.      1:tdn8a13 =   0.     
 +1:tdn8a14 =   0.      1:tdn8a15 =   0.      1:tdn8a16 =   0.     
 +1:tdn8a2  =   0.      1:tdn8a3  =   0.      1:tdn8a4  =   0.     
 +1:tdn8a5  =   0.      1:tdn8a6  =   0.      1:tdn8a7  =   0.     
 +1:tdn8a8  =   0.      1:tdn8a9  =   0.      1:tdnga10 =   0.     
 +1:tdnga11 =   0.      1:tdnga12 =   0.      1:tdnga13 =   0.     
 +1:tdnga14 =   0.      1:tdnga15 =   0.      1:tdnga16 =   0.     
 +1:tdnga2  =   0.      1:tdnga3  =   0.      1:tdnga4  =   0.     
 +1:tdnga5  =   0.      1:tdnga6  =   0.      1:tdnga7  =   0.     
 +1:tdnga8  =   0.      1:tdnga9  =   0.      1:tdnva10 =   0.     
 +1:tdnva11 =   0.      1:tdnva12 =   0.      1:tdnva13 =   0.     
 +1:tdnva14 =   0.      1:tdnva15 =   0.      1:tdnva16 =   0.     
 +1:tdnva2  =   0.      1:tdnva3  =   0.      1:tdnva4  =   0.     
 +1:tdnva5  =   0.      1:tdnva6  =   0.      1:tdnva7  =   0.     
 +1:tdnva8  =   0.      1:tdnva9  =   0.     

 ******
 *a bus interconnect circuit with 10 bus line 8 segment.

 ****** transient analysis tnom=  25.000 temp=  25.000 ******
x

 time         voltage    voltage    voltage    voltage   
             tdn1a9     tdn2a9     tdn3a9     tdn4a9     
    0.          0.         0.         0.         0.      
   10.00000p    0.         0.         0.         0.      
   20.00000p    0.         0.         0.         0.      
   30.00000p    0.         0.         0.         0.      
   40.00000p    0.         0.         0.         0.      
   50.00000p    0.         0.         0.         0.      
   60.00000p    0.         0.         0.         0.      
   70.00000p    0.         0.         0.         0.      
   80.00000p    0.         0.         0.         0.      
   90.00000p    0.         0.         0.         0.      
  100.00000p    0.         0.         0.         0.      
  110.00000p    0.         0.         0.         0.      
  120.00000p    0.         0.         0.         0.      
  130.00000p    0.         0.         0.         0.      
  140.00000p    0.         0.         0.         0.      
  150.00000p    0.         0.         0.         0.      
  160.00000p    0.         0.         0.         0.      
  170.00000p    0.         0.         0.         0.      
  180.00000p    0.         0.         0.         0.      
  190.00000p    0.         0.         0.         0.      
  200.00000p    0.         0.         0.         0.      
  210.00000p    0.         0.         0.         0.      
  220.00000p    0.         0.         0.         0.      
  230.00000p    0.         0.         0.         0.      
  240.00000p    0.         0.         0.         0.      
  250.00000p    0.         0.         0.         0.      
  260.00000p    0.         0.         0.         0.      
  270.00000p    0.         0.         0.         0.      
  280.00000p    0.         0.         0.         0.      
  290.00000p    0.         0.         0.         0.      
  300.00000p    0.         0.         0.         0.      
  310.00000p    0.         0.         0.         0.      
  320.00000p    0.         0.         0.         0.      
  330.00000p    0.         0.         0.         0.      
  340.00000p    0.         0.         0.         0.      
  350.00000p    0.         0.         0.         0.      
  360.00000p    0.         0.         0.         0.      
  370.00000p    0.         0.         0.         0.      
  380.00000p    0.         0.         0.         0.      
  390.00000p    0.         0.         0.         0.      
  400.00000p    0.         0.         0.         0.      
  410.00000p    0.         0.         0.         0.      
  420.00000p    0.         0.         0.         0.      
  430.00000p    0.         0.         0.         0.      
  440.00000p    0.         0.         0.         0.      
  450.00000p    0.         0.         0.         0.      
  460.00000p    0.         0.         0.         0.      
  470.00000p    0.         0.         0.         0.      
  480.00000p    0.         0.         0.         0.      
  490.00000p    0.         0.         0.         0.      
  500.00000p    0.         0.         0.         0.      
  510.00000p    0.         0.         0.         0.      
  520.00000p    0.         0.         0.         0.      
  530.00000p    0.         0.         0.         0.      
  540.00000p    0.         0.         0.         0.      
  550.00000p    0.         0.         0.         0.      
  560.00000p    0.         0.         0.         0.      
  570.00000p    0.         0.         0.         0.      
  580.00000p    0.         0.         0.         0.      
  590.00000p    0.         0.         0.         0.      
  600.00000p    0.         0.         0.         0.      
  610.00000p    0.         0.         0.         0.      
  620.00000p    0.         0.         0.         0.      
  630.00000p    0.         0.         0.         0.      
  640.00000p    0.         0.         0.         0.      
  650.00000p    0.         0.         0.         0.      
  660.00000p    0.         0.         0.         0.      
  670.00000p    0.         0.         0.         0.      
  680.00000p    0.         0.         0.         0.      
  690.00000p    0.         0.         0.         0.      
  700.00000p    0.         0.         0.         0.      
  710.00000p    0.         0.         0.         0.      
  720.00000p    0.         0.         0.         0.      
  730.00000p    0.         0.         0.         0.      
  740.00000p    0.         0.         0.         0.      
  750.00000p    0.         0.         0.         0.      
  760.00000p    0.         0.         0.         0.      
  770.00000p    0.         0.         0.         0.      
  780.00000p    0.         0.         0.         0.      
  790.00000p    0.         0.         0.         0.      
  800.00000p    0.         0.         0.         0.      
  810.00000p    0.         0.         0.         0.      
  820.00000p    0.         0.         0.         0.      
  830.00000p    0.         0.         0.         0.      
  840.00000p    0.         0.         0.         0.      
  850.00000p    0.         0.         0.         0.      
  860.00000p    0.         0.         0.         0.      
  870.00000p    0.         0.         0.         0.      
  880.00000p    0.         0.         0.         0.      
  890.00000p    0.         0.         0.         0.      
  900.00000p    0.         0.         0.         0.      
  910.00000p    0.         0.         0.         0.      
  920.00000p    0.         0.         0.         0.      
  930.00000p    0.         0.         0.         0.      
  940.00000p    0.         0.         0.         0.      
  950.00000p    0.         0.         0.         0.      
  960.00000p    0.         0.         0.         0.      
  970.00000p    0.         0.         0.         0.      
  980.00000p    0.         0.         0.         0.      
  990.00000p    0.         0.         0.         0.      
 1000.00000p    0.         0.         0.         0.      
    1.01000n -387.6880m  -15.7954m  -14.4251m  -19.9500m 
    1.02000n -775.3760m  -31.5909m  -28.8503m  -39.9001m 
    1.03000n   -1.1631   -47.3863m  -43.2754m  -59.8501m 
    1.04000n   -1.5508   -63.1817m  -57.7006m  -79.8002m 
    1.05000n   -1.9384   -78.9771m  -72.1257m  -99.7502m 
    1.06000n   -2.3261   -94.7726m  -86.5509m -119.7002m 
    1.07000n   -2.7138  -110.5680m -100.9760m -139.6503m 
    1.08000n   -3.1806  -122.7416m -107.7602m -150.5851m 
    1.09000n   -3.7265  -131.2935m -106.9033m -152.5046m 
    1.10000n   -4.2724  -139.8454m -106.0465m -154.4242m 
    1.11000n   -4.8183  -148.3972m -105.1896m -156.3438m 
    1.12000n   -5.3642  -156.9491m -104.3328m -158.2633m 
    1.13000n   -5.9101  -165.5010m -103.4760m -160.1829m 
    1.14000n   -6.4560  -174.0528m -102.6191m -162.1024m 
    1.15000n   -7.0019  -182.6047m -101.7623m -164.0220m 
    1.16000n   -7.5502  -191.1293m -100.9121m -165.7472m 
    1.17000n   -8.1870  -198.6614m -100.3025m -160.4125m 
    1.18000n   -8.8238  -206.1936m  -99.6928m -155.0777m 
    1.19000n   -9.4605  -213.7257m  -99.0832m -149.7430m 
    1.20000n  -10.0973  -221.2578m  -98.4736m -144.4082m 
    1.21000n  -10.7341  -228.7900m  -97.8640m -139.0734m 
    1.22000n  -11.3709  -236.3221m  -97.2544m -133.7387m 
    1.23000n  -12.0077  -243.8543m  -96.6448m -128.4039m 
    1.24000n  -12.6444  -251.3864m  -96.0351m -123.0692m 
    1.25000n  -13.2812  -258.9186m  -95.4255m -117.7344m 
    1.26000n  -13.9180  -266.4507m  -94.8159m -112.3997m 
    1.27000n  -14.5548  -273.9829m  -94.2063m -107.0649m 
    1.28000n  -15.1915  -281.5150m  -93.5967m -101.7302m 
    1.29000n  -15.8283  -289.0472m  -92.9871m  -96.3954m 
    1.30000n  -16.4651  -296.5793m  -92.3775m  -91.0607m 
    1.31000n  -17.1019  -304.1114m  -91.7678m  -85.7259m 
    1.32000n  -17.7386  -311.6436m  -91.1582m  -80.3912m 
    1.33000n  -18.3754  -319.1757m  -90.5486m  -75.0564m 
    1.34000n  -19.0122  -326.7079m  -89.9390m  -69.7217m 
    1.35000n  -19.6490  -334.2400m  -89.3294m  -64.3869m 
    1.36000n  -20.2858  -341.7722m  -88.7198m  -59.0522m 
    1.37000n  -20.9225  -349.3043m  -88.1101m  -53.7174m 
    1.38000n  -21.5593  -356.8365m  -87.5005m  -48.3827m 
    1.39000n  -22.1961  -364.3686m  -86.8909m  -43.0479m 
    1.40000n  -22.8329  -371.9008m  -86.2813m  -37.7132m 
    1.41000n  -23.4696  -379.4329m  -85.6717m  -32.3784m 
    1.42000n  -24.1064  -386.9650m  -85.0621m  -27.0437m 
    1.43000n  -24.7432  -394.4972m  -84.4524m  -21.7089m 
    1.44000n  -25.2892  -393.0648m  -95.0321m  -32.6910m 
    1.45000n  -25.8265  -390.7732m -106.6843m  -45.2370m 
    1.46000n  -26.3638  -388.4815m -118.3366m  -57.7830m 
    1.47000n  -26.9012  -386.1899m -129.9888m  -70.3290m 
    1.48000n  -27.4385  -383.8983m -141.6410m  -82.8750m 
    1.49000n  -27.9758  -381.6066m -153.2932m  -95.4210m 
    1.50000n  -28.5131  -379.3150m -164.9454m -107.9671m 
    1.51000n  -28.6541  -358.2897m -151.4919m  -96.2133m 
    1.52000n  -28.7952  -337.2644m -138.0384m  -84.4596m 
    1.53000n  -28.9362  -316.2392m -124.5850m  -72.7058m 
    1.54000n  -29.0772  -295.2139m -111.1315m  -60.9521m 
    1.55000n  -29.2182  -274.1886m  -97.6780m  -49.1983m 
    1.56000n  -29.3593  -253.1633m  -84.2246m  -37.4446m 
    1.57000n  -29.5003  -232.1380m  -70.7711m  -25.6909m 
    1.58000n  -29.6413  -211.1128m  -57.3176m  -13.9371m 
    1.59000n  -29.7823  -190.0875m  -43.8642m   -2.1834m 
    1.60000n  -29.9234  -169.0622m  -30.4107m    9.5704m 
    1.61000n  -30.0644  -148.0369m  -16.9572m   21.3241m 
    1.62000n  -30.1493  -135.0383m  -10.1513m   28.2599m 
    1.63000n  -30.2307  -122.5526m   -3.7700m   34.8878m 
    1.64000n  -30.3120  -110.0669m    2.6113m   41.5157m 
    1.65000n  -30.3580   -99.4976m    5.8086m   44.3294m 
    1.66000n  -30.3271   -93.1052m    2.0673m   38.8308m 
    1.67000n  -30.2961   -86.7128m   -1.6741m   33.3321m 
    1.68000n  -30.2651   -80.3203m   -5.4155m   27.8335m 
    1.69000n  -30.2341   -73.9279m   -9.1569m   22.3349m 
    1.70000n  -30.2031   -67.5355m  -12.8983m   16.8362m 
    1.71000n  -30.1721   -61.1430m  -16.6397m   11.3376m 
    1.72000n  -30.1411   -54.7506m  -20.3811m    5.8390m 
    1.73000n  -30.1101   -48.3582m  -24.1225m  340.3137u 
    1.74000n  -30.0791   -41.9657m  -27.8639m   -5.1583m 
    1.75000n  -30.0481   -35.5733m  -31.6053m  -10.6570m 
    1.76000n  -30.0171   -29.1809m  -35.3467m  -16.1556m 
    1.77000n  -30.0055   -25.2043m  -34.7735m  -17.5294m 
    1.78000n  -30.0016   -22.1991m  -32.4653m  -17.2445m 
    1.79000n  -29.9978   -19.1940m  -30.1571m  -16.9595m 
    1.80000n  -29.9939   -16.1889m  -27.8489m  -16.6746m 
    1.81000n  -29.9901   -13.1838m  -25.5406m  -16.3897m 
    1.82000n  -29.9863   -10.1786m  -23.2324m  -16.1047m 
    1.83000n  -29.9824    -7.1735m  -20.9242m  -15.8198m 
    1.84000n  -29.9786    -4.1684m  -18.6160m  -15.5349m 
    1.85000n  -29.9747    -1.1632m  -16.3078m  -15.2500m 
    1.86000n  -29.9709     1.8419m  -13.9996m  -14.9650m 
    1.87000n  -29.9671     4.8470m  -11.6914m  -14.6801m 
    1.88000n  -29.9632     7.8521m   -9.3832m  -14.3952m 
    1.89000n  -29.9594    10.8573m   -7.0750m  -14.1102m 
    1.90000n  -29.9555    13.8624m   -4.7668m  -13.8253m 
    1.91000n  -29.9517    16.8675m   -2.4585m  -13.5404m 
    1.92000n  -29.9478    19.8726m -150.3362u  -13.2554m 
    1.93000n  -29.9440    22.8778m    2.1579m  -12.9705m 
    1.94000n  -29.9402    25.8829m    4.4661m  -12.6856m 
    1.95000n  -29.9363    28.8880m    6.7743m  -12.4006m 
    1.96000n  -29.9325    31.8931m    9.0825m  -12.1157m 
    1.97000n  -29.9286    34.8983m   11.3907m  -11.8308m 
    1.98000n  -29.9248    37.9034m   13.6989m  -11.5459m 
    1.99000n  -29.9209    40.9085m   16.0071m  -11.2609m 
    2.00000n  -29.9171    43.9137m   18.3153m  -10.9760m 
    2.01000n  -29.9146    46.2687m   20.3721m  -10.5217m 
    2.02000n  -29.9284    40.3378m   19.2240m   -7.9092m 
    2.03000n  -29.9423    34.4070m   18.0760m   -5.2967m 
    2.04000n  -29.9562    28.4762m   16.9279m   -2.6842m 
    2.05000n  -29.9701    22.5453m   15.7799m  -71.7459u 
    2.06000n  -29.9840    16.6145m   14.6318m    2.5407m 
    2.07000n  -29.9979    10.6837m   13.4837m    5.1532m 
    2.08000n  -30.0118     4.7529m   12.3357m    7.7657m 
    2.09000n  -30.0257    -1.1780m   11.1876m   10.3782m 
