 ****** HSPICE -- P-2019.06-SP1-1 win64 (Sep 27 2019) ******                    
  Copyright (c) 1986 - 2022 by Synopsys, Inc. All Rights Reserved.              
  This software and the associated documentation are proprietary
  to Synopsys, Inc. This software may only be used in accordance
  with the terms and conditions of a written license agreement with
  Synopsys, Inc. All other use, reproduction, or distribution of
  this software is strictly prohibited.
  Input File: bus8bit8seg.sp                                                    
  Command line options: C:\synopsys\Hspice_P-2019.06-SP1-1\WIN64\hspice.com -i bus8bit8seg.sp -o F:\Benchmark\bus8bit8seg.lis
  Start time: Tue Dec  6 18:06:09 2022
  lic:  
  lic: FLEXlm: SDK_12.3 
  lic: USER:   44919                HOSTNAME: CZJ 
  lic: HOSTID: "000000000000"       PID:      21952 
  lic: Using FLEXlm license file: 
  lic: 27000@CZJ 
  lic: Checkout 1 hspice 
  lic: License/Maintenance for hspice will expire on 30-dec-2030/2030.12 
  lic: 1(in_use)/99(total) FLOATING license(s) on SERVER 27000@CZJ 
  lic:   
1****** HSPICE -- P-2019.06-SP1-1 win64 (Sep 27 2019) ******                    
 ******  
 *a bus interconnect circuit with 10 bus line 8 segment.

 ****** circuit name directory
 circuit number to circuit name directory
   number circuitname                     definition         multiplier
        0 main circuit
        1 x1.                             intercon           1.00 
  **info** (bus8bit8seg.sp:12) DC voltage reset to initial transient source value in source 0:iin1. new dc=0.0000D+00
  **warning** For .option genk=1, 0 implicit mutual inductors are generated!

             
 Summary of Linear Res Distribution Info
 -----------------------------------------------------
 |Range                        |Total     |Percent(%)|
 |-----------------------------+----------+----------|
 |1.000000e-01  ~  1.000000e+00|3         |3.2967    |
 |1.000000e+00  ~  1.000000e+03|88        |96.7033   |
 -----------------------------------------------------
              
             
 Summary of Linear Cap Distribution Info
 -----------------------------------------------------
 |Range                        |Total     |Percent(%)|
 |-----------------------------+----------+----------|
 |1.000000e-15  ~  1.000000e-14|142       |34.3826   |
 |1.000000e-14  ~  1.000000e-13|263       |63.6804   |
 |1.000000e-13  ~  1.000000e-12|8         |1.9370    |
 -----------------------------------------------------
              
             
 Summary of Detailed RC Type Statistics
 -------------------------
 |Element Type|Number    |
 |------------+----------|
 |Constant Res|91        |
 |            |          |
 |Constant Cap|413       |
 -------------------------
              
  
      
 *****************************************************************
 ******  option summary
 ******
 runlvl  = 3         bypass  = 2.0000    

 **info** rebuilding matrix with pivot option

 **info** dc convergence successful at Newton-Raphson method 
 ******  
 *a bus interconnect circuit with 10 bus line 8 segment.

 ****** operating point information tnom=  25.000 temp=  25.000 ******
 ****** operating point status is voltage   simulation time is     0.     
    node    =voltage      node    =voltage      node    =voltage

 +0:tdn1a1  =   0.      0:tdn1a9  =   0.      0:tdn2a1  =   0.     
 +0:tdn2a9  =   0.      0:tdn3a1  =   0.      0:tdn3a9  =   0.     
 +0:tdn4a1  =   0.      0:tdn4a9  =   0.      0:tdn5a1  =   0.     
 +0:tdn5a9  =   0.      0:tdn6a1  =   0.      0:tdn6a9  =   0.     
 +0:tdn7a1  =   0.      0:tdn7a9  =   0.      0:tdn8a1  =   0.     
 +0:tdn8a9  =   0.      0:tdnga1  =   0.      0:tdnga9  =   0.     
 +0:tdnva1  =   0.      0:tdnva9  =   0.      1:tdn1a10 =   0.     
 +1:tdn1a11 =   0.      1:tdn1a12 =   0.      1:tdn1a13 =   0.     
 +1:tdn1a14 =   0.      1:tdn1a15 =   0.      1:tdn1a16 =   0.     
 +1:tdn1a2  =   0.      1:tdn1a3  =   0.      1:tdn1a4  =   0.     
 +1:tdn1a5  =   0.      1:tdn1a6  =   0.      1:tdn1a7  =   0.     
 +1:tdn1a8  =   0.      1:tdn1a9  =   0.      1:tdn2a10 =   0.     
 +1:tdn2a11 =   0.      1:tdn2a12 =   0.      1:tdn2a13 =   0.     
 +1:tdn2a14 =   0.      1:tdn2a15 =   0.      1:tdn2a16 =   0.     
 +1:tdn2a2  =   0.      1:tdn2a3  =   0.      1:tdn2a4  =   0.     
 +1:tdn2a5  =   0.      1:tdn2a6  =   0.      1:tdn2a7  =   0.     
 +1:tdn2a8  =   0.      1:tdn2a9  =   0.      1:tdn3a10 =   0.     
 +1:tdn3a11 =   0.      1:tdn3a12 =   0.      1:tdn3a13 =   0.     
 +1:tdn3a14 =   0.      1:tdn3a15 =   0.      1:tdn3a16 =   0.     
 +1:tdn3a2  =   0.      1:tdn3a3  =   0.      1:tdn3a4  =   0.     
 +1:tdn3a5  =   0.      1:tdn3a6  =   0.      1:tdn3a7  =   0.     
 +1:tdn3a8  =   0.      1:tdn3a9  =   0.      1:tdn4a10 =   0.     
 +1:tdn4a11 =   0.      1:tdn4a12 =   0.      1:tdn4a13 =   0.     
 +1:tdn4a14 =   0.      1:tdn4a15 =   0.      1:tdn4a16 =   0.     
 +1:tdn4a2  =   0.      1:tdn4a3  =   0.      1:tdn4a4  =   0.     
 +1:tdn4a5  =   0.      1:tdn4a6  =   0.      1:tdn4a7  =   0.     
 +1:tdn4a8  =   0.      1:tdn4a9  =   0.      1:tdn5a10 =   0.     
 +1:tdn5a11 =   0.      1:tdn5a12 =   0.      1:tdn5a13 =   0.     
 +1:tdn5a14 =   0.      1:tdn5a15 =   0.      1:tdn5a16 =   0.     
 +1:tdn5a2  =   0.      1:tdn5a3  =   0.      1:tdn5a4  =   0.     
 +1:tdn5a5  =   0.      1:tdn5a6  =   0.      1:tdn5a7  =   0.     
 +1:tdn5a8  =   0.      1:tdn5a9  =   0.      1:tdn6a10 =   0.     
 +1:tdn6a11 =   0.      1:tdn6a12 =   0.      1:tdn6a13 =   0.     
 +1:tdn6a14 =   0.      1:tdn6a15 =   0.      1:tdn6a16 =   0.     
 +1:tdn6a2  =   0.      1:tdn6a3  =   0.      1:tdn6a4  =   0.     
 +1:tdn6a5  =   0.      1:tdn6a6  =   0.      1:tdn6a7  =   0.     
 +1:tdn6a8  =   0.      1:tdn6a9  =   0.      1:tdn7a10 =   0.     
 +1:tdn7a11 =   0.      1:tdn7a12 =   0.      1:tdn7a13 =   0.     
 +1:tdn7a14 =   0.      1:tdn7a15 =   0.      1:tdn7a16 =   0.     
 +1:tdn7a2  =   0.      1:tdn7a3  =   0.      1:tdn7a4  =   0.     
 +1:tdn7a5  =   0.      1:tdn7a6  =   0.      1:tdn7a7  =   0.     
 +1:tdn7a8  =   0.      1:tdn7a9  =   0.      1:tdn8a10 =   0.     
 +1:tdn8a11 =   0.      1:tdn8a12 =   0.      1:tdn8a13 =   0.     
 +1:tdn8a14 =   0.      1:tdn8a15 =   0.      1:tdn8a16 =   0.     
 +1:tdn8a2  =   0.      1:tdn8a3  =   0.      1:tdn8a4  =   0.     
 +1:tdn8a5  =   0.      1:tdn8a6  =   0.      1:tdn8a7  =   0.     
 +1:tdn8a8  =   0.      1:tdn8a9  =   0.      1:tdnga10 =   0.     
 +1:tdnga11 =   0.      1:tdnga12 =   0.      1:tdnga13 =   0.     
 +1:tdnga14 =   0.      1:tdnga15 =   0.      1:tdnga16 =   0.     
 +1:tdnga2  =   0.      1:tdnga3  =   0.      1:tdnga4  =   0.     
 +1:tdnga5  =   0.      1:tdnga6  =   0.      1:tdnga7  =   0.     
 +1:tdnga8  =   0.      1:tdnga9  =   0.      1:tdnva10 =   0.     
 +1:tdnva11 =   0.      1:tdnva12 =   0.      1:tdnva13 =   0.     
 +1:tdnva14 =   0.      1:tdnva15 =   0.      1:tdnva16 =   0.     
 +1:tdnva2  =   0.      1:tdnva3  =   0.      1:tdnva4  =   0.     
 +1:tdnva5  =   0.      1:tdnva6  =   0.      1:tdnva7  =   0.     
 +1:tdnva8  =   0.      1:tdnva9  =   0.     

 ******
 *a bus interconnect circuit with 10 bus line 8 segment.

 ****** transient analysis tnom=  25.000 temp=  25.000 ******
x

 time         voltage    voltage    voltage    voltage   
             tdn1a9     tdn2a9     tdn3a9     tdn4a9     
    0.          0.         0.         0.         0.      
   10.00000p   -5.4618m   -5.4469m   -5.4521m   -5.4521m 
   20.00000p  -15.3155m   -9.8381m  -10.6501m  -10.9668m 
   30.00000p  -27.0005m  -13.7322m  -15.6925m  -16.4615m 
   40.00000p  -44.9720m  -16.8761m  -19.8764m  -21.2722m 
   50.00000p -101.5613m  -15.4114m  -18.7870m  -21.8818m 
   60.00000p -158.1506m  -13.9468m  -17.6976m  -22.4914m 
   70.00000p -214.7398m  -12.4822m  -16.6082m  -23.1010m 
   80.00000p -271.3291m  -11.0176m  -15.5187m  -23.7106m 
   90.00000p -327.9184m   -9.5530m  -14.4293m  -24.3202m 
  100.00000p -384.5076m   -8.0884m  -13.3399m  -24.9298m 
  110.00000p -441.0969m   -6.6238m  -12.2505m  -25.5394m 
  120.00000p -497.6862m   -5.1592m  -11.1611m  -26.1490m 
  130.00000p -568.7034m   -7.1154m  -10.6101m  -24.5150m 
  140.00000p -640.5121m   -9.2592m  -10.0887m  -22.7579m 
  150.00000p -712.3207m  -11.4030m   -9.5673m  -21.0007m 
  160.00000p -784.1293m  -13.5468m   -9.0459m  -19.2436m 
  170.00000p -855.9380m  -15.6906m   -8.5244m  -17.4865m 
  180.00000p -927.7466m  -17.8344m   -8.0030m  -15.7294m 
  190.00000p -999.5553m  -19.9782m   -7.4816m  -13.9722m 
  200.00000p   -1.0714   -22.1220m   -6.9602m  -12.2151m 
  210.00000p   -1.1432   -24.2658m   -6.4388m  -10.4580m 
  220.00000p   -1.2150   -26.4096m   -5.9173m   -8.7009m 
  230.00000p   -1.2868   -28.5534m   -5.3959m   -6.9437m 
  240.00000p   -1.3586   -30.6972m   -4.8745m   -5.1866m 
  250.00000p   -1.4304   -32.8411m   -4.3531m   -3.4295m 
  260.00000p   -1.5022   -34.9849m   -3.8316m   -1.6724m 
  270.00000p   -1.5740   -37.1287m   -3.3102m   84.7562u 
  280.00000p   -1.6458   -39.2725m   -2.7888m    1.8419m 
  290.00000p   -1.7176   -41.4163m   -2.2674m    3.5990m 
  300.00000p   -1.7895   -43.5601m   -1.7459m    5.3561m 
  310.00000p   -1.8613   -45.7039m   -1.2245m    7.1133m 
  320.00000p   -1.9273   -46.8958m   -1.2069m    7.8547m 
  330.00000p   -1.9821   -46.2042m   -2.1863m    6.5864m 
  340.00000p   -2.0368   -45.5126m   -3.1656m    5.3180m 
  350.00000p   -2.0915   -44.8210m   -4.1449m    4.0497m 
  360.00000p   -2.1463   -44.1293m   -5.1243m    2.7814m 
  370.00000p   -2.2010   -43.4377m   -6.1036m    1.5131m 
  380.00000p   -2.2557   -42.7461m   -7.0830m  244.7261u 
  390.00000p   -2.3105   -42.0545m   -8.0623m   -1.0236m 
  400.00000p   -2.3652   -41.3629m   -9.0416m   -2.2919m 
  410.00000p   -2.4199   -40.6713m  -10.0210m   -3.5603m 
  420.00000p   -2.4747   -39.9797m  -11.0003m   -4.8286m 
  430.00000p   -2.5294   -39.2881m  -11.9797m   -6.0969m 
  440.00000p   -2.5842   -38.5964m  -12.9590m   -7.3652m 
  450.00000p   -2.6389   -37.9048m  -13.9383m   -8.6336m 
  460.00000p   -2.6936   -37.2132m  -14.9177m   -9.9019m 
  470.00000p   -2.7484   -36.5216m  -15.8970m  -11.1702m 
  480.00000p   -2.8031   -35.8300m  -16.8764m  -12.4385m 
  490.00000p   -2.8578   -35.1384m  -17.8557m  -13.7069m 
  500.00000p   -2.9126   -34.4468m  -18.8350m  -14.9752m 
  510.00000p   -2.9673   -33.7552m  -19.8144m  -16.2435m 
  520.00000p   -3.0220   -33.0635m  -20.7937m  -17.5118m 
  530.00000p   -3.0768   -32.3719m  -21.7731m  -18.7802m 
  540.00000p   -3.1315   -31.6803m  -22.7524m  -20.0485m 
  550.00000p   -3.1862   -30.9887m  -23.7317m  -21.3168m 
  560.00000p   -3.2410   -30.2971m  -24.7111m  -22.5851m 
  570.00000p   -3.2957   -29.6055m  -25.6904m  -23.8535m 
  580.00000p   -3.3517   -29.1235m  -25.9754m  -24.3669m 
  590.00000p   -3.4095   -28.9497m  -25.2392m  -23.7703m 
  600.00000p   -3.4673   -28.7759m  -24.5031m  -23.1736m 
  610.00000p   -3.5252   -28.6021m  -23.7669m  -22.5770m 
  620.00000p   -3.5830   -28.4283m  -23.0307m  -21.9803m 
  630.00000p   -3.6408   -28.2546m  -22.2946m  -21.3836m 
  640.00000p   -3.6986   -28.0808m  -21.5584m  -20.7870m 
  650.00000p   -3.7565   -27.9070m  -20.8222m  -20.1903m 
  660.00000p   -3.8143   -27.7332m  -20.0861m  -19.5937m 
  670.00000p   -3.8721   -27.5594m  -19.3499m  -18.9970m 
  680.00000p   -3.9299   -27.3857m  -18.6138m  -18.4004m 
  690.00000p   -3.9878   -27.2119m  -17.8776m  -17.8037m 
  700.00000p   -4.0456   -27.0381m  -17.1414m  -17.2070m 
  710.00000p   -4.1034   -26.8643m  -16.4053m  -16.6104m 
  720.00000p   -4.1612   -26.6905m  -15.6691m  -16.0137m 
  730.00000p   -4.2191   -26.5168m  -14.9329m  -15.4171m 
  740.00000p   -4.2769   -26.3430m  -14.1968m  -14.8204m 
  750.00000p   -4.3347   -26.1692m  -13.4606m  -14.2238m 
  760.00000p   -4.3925   -25.9954m  -12.7244m  -13.6271m 
  770.00000p   -4.4504   -25.8216m  -11.9883m  -13.0304m 
  780.00000p   -4.5082   -25.6479m  -11.2521m  -12.4338m 
  790.00000p   -4.5660   -25.4741m  -10.5160m  -11.8371m 
  800.00000p   -4.6238   -25.3003m   -9.7798m  -11.2405m 
  810.00000p   -4.6817   -25.1265m   -9.0436m  -10.6438m 
  820.00000p   -4.7395   -24.9527m   -8.3075m  -10.0472m 
  830.00000p   -4.7973   -24.7789m   -7.5713m   -9.4505m 
  840.00000p   -4.8551   -24.6052m   -6.8351m   -8.8538m 
  850.00000p   -4.9130   -24.4314m   -6.0990m   -8.2572m 
  860.00000p   -4.9708   -24.2576m   -5.3628m   -7.6605m 
  870.00000p   -5.0286   -24.0838m   -4.6266m   -7.0639m 
  880.00000p   -5.0864   -23.9100m   -3.8905m   -6.4672m 
  890.00000p   -5.1443   -23.7363m   -3.1543m   -5.8706m 
  900.00000p   -5.2021   -23.5625m   -2.4182m   -5.2739m 
  910.00000p   -5.2599   -23.3887m   -1.6820m   -4.6772m 
  920.00000p   -5.3178   -23.2149m -945.8331u   -4.0806m 
  930.00000p   -5.3756   -23.0411m -209.6698u   -3.4839m 
  940.00000p   -5.4334   -22.8674m  526.4936u   -2.8873m 
  950.00000p   -5.4912   -22.6936m    1.2627m   -2.2906m 
  960.00000p   -5.5491   -22.5198m    1.9988m   -1.6940m 
  970.00000p   -5.6069   -22.3460m    2.7350m   -1.0973m 
  980.00000p   -5.6647   -22.1722m    3.4711m -500.6366u 
  990.00000p   -5.7225   -21.9985m    4.2073m   96.0207u 
 1000.00000p   -5.7804   -21.8247m    4.9435m  692.6781u 
    1.01000n   -5.8382   -21.6509m    5.6796m    1.2893m 
    1.02000n   -5.8960   -21.4771m    6.4158m    1.8860m 
    1.03000n   -5.9538   -21.3033m    7.1520m    2.4827m 
    1.04000n   -5.9986   -21.5098m    6.6691m    2.2752m 
    1.05000n   -6.0413   -21.7747m    5.9987m    1.9440m 
    1.06000n   -6.0840   -22.0397m    5.3283m    1.6129m 
    1.07000n   -6.1267   -22.3046m    4.6578m    1.2817m 
    1.08000n   -6.1694   -22.5695m    3.9874m  950.5927u 
    1.09000n   -6.2122   -22.8345m    3.3170m  619.4440u 
    1.10000n   -6.2549   -23.0994m    2.6466m  288.2953u 
    1.11000n   -6.2976   -23.3643m    1.9762m  -42.8533u 
    1.12000n   -6.3403   -23.6293m    1.3058m -374.0020u 
    1.13000n   -6.3830   -23.8942m  635.4062u -705.1507u 
    1.14000n   -6.4257   -24.1591m  -35.0005u   -1.0363m 
    1.15000n   -6.4685   -24.4241m -705.4072u   -1.3674m 
    1.16000n   -6.5112   -24.6890m   -1.3758m   -1.6986m 
    1.17000n   -6.5539   -24.9540m   -2.0462m   -2.0297m 
    1.18000n   -6.5966   -25.2189m   -2.7166m   -2.3609m 
    1.19000n   -6.6393   -25.4838m   -3.3870m   -2.6920m 
    1.20000n   -6.6821   -25.7488m   -4.0574m   -3.0232m 
    1.21000n   -6.7248   -26.0137m   -4.7278m   -3.3543m 
    1.22000n   -6.7675   -26.2786m   -5.3983m   -3.6855m 
    1.23000n   -6.8102   -26.5436m   -6.0687m   -4.0166m 
    1.24000n   -6.8529   -26.8085m   -6.7391m   -4.3478m 
    1.25000n   -6.8957   -27.0734m   -7.4095m   -4.6789m 
    1.26000n   -6.9384   -27.3384m   -8.0799m   -5.0101m 
    1.27000n   -6.9811   -27.6033m   -8.7503m   -5.3412m 
    1.28000n   -7.0238   -27.8682m   -9.4207m   -5.6724m 
    1.29000n   -7.0665   -28.1332m  -10.0911m   -6.0035m 
    1.30000n   -7.1092   -28.3981m  -10.7615m   -6.3347m 
    1.31000n   -7.1520   -28.6631m  -11.4319m   -6.6658m 
    1.32000n   -7.1947   -28.9280m  -12.1023m   -6.9970m 
    1.33000n   -7.2374   -29.1929m  -12.7727m   -7.3281m 
    1.34000n   -7.2801   -29.4579m  -13.4431m   -7.6593m 
    1.35000n   -7.3228   -29.7228m  -14.1135m   -7.9904m 
    1.36000n   -7.3656   -29.9877m  -14.7839m   -8.3216m 
    1.37000n   -7.4083   -30.2527m  -15.4544m   -8.6527m 
    1.38000n   -7.4510   -30.5176m  -16.1248m   -8.9839m 
    1.39000n   -7.4937   -30.7825m  -16.7952m   -9.3150m 
    1.40000n   -7.5364   -31.0475m  -17.4656m   -9.6462m 
    1.41000n   -7.5792   -31.3124m  -18.1360m   -9.9773m 
    1.42000n   -7.6219   -31.5773m  -18.8064m  -10.3085m 
    1.43000n   -7.6646   -31.8423m  -19.4768m  -10.6396m 
    1.44000n   -7.7073   -32.1072m  -20.1472m  -10.9708m 
    1.45000n   -7.7500   -32.3722m  -20.8176m  -11.3019m 
    1.46000n   -7.7927   -32.6371m  -21.4880m  -11.6331m 
    1.47000n   -7.8355   -32.9020m  -22.1584m  -11.9642m 
    1.48000n   -7.8782   -33.1670m  -22.8288m  -12.2954m 
    1.49000n   -7.9209   -33.4319m  -23.4992m  -12.6265m 
    1.50000n   -7.9636   -33.6968m  -24.1696m  -12.9577m 
    1.51000n   -7.9949   -33.2347m  -23.7192m  -12.7888m 
    1.52000n   -8.0262   -32.7725m  -23.2687m  -12.6200m 
    1.53000n   -8.0575   -32.3103m  -22.8182m  -12.4512m 
    1.54000n   -8.0888   -31.8481m  -22.3678m  -12.2824m 
    1.55000n   -8.1201   -31.3859m  -21.9173m  -12.1136m 
    1.56000n   -8.1514   -30.9238m  -21.4668m  -11.9448m 
    1.57000n   -8.1827   -30.4616m  -21.0163m  -11.7760m 
    1.58000n   -8.2140   -29.9994m  -20.5659m  -11.6072m 
    1.59000n   -8.2453   -29.5372m  -20.1154m  -11.4384m 
    1.60000n   -8.2766   -29.0751m  -19.6649m  -11.2696m 
    1.61000n   -8.3079   -28.6129m  -19.2145m  -11.1008m 
    1.62000n   -8.3392   -28.1507m  -18.7640m  -10.9320m 
    1.63000n   -8.3705   -27.6885m  -18.3135m  -10.7632m 
    1.64000n   -8.4018   -27.2263m  -17.8630m  -10.5944m 
    1.65000n   -8.4331   -26.7642m  -17.4126m  -10.4256m 
    1.66000n   -8.4644   -26.3020m  -16.9621m  -10.2568m 
    1.67000n   -8.4957   -25.8398m  -16.5116m  -10.0880m 
    1.68000n   -8.5269   -25.3776m  -16.0611m   -9.9192m 
    1.69000n   -8.5582   -24.9154m  -15.6107m   -9.7504m 
    1.70000n   -8.5895   -24.4533m  -15.1602m   -9.5816m 
    1.71000n   -8.6208   -23.9911m  -14.7097m   -9.4128m 
    1.72000n   -8.6521   -23.5289m  -14.2593m   -9.2440m 
    1.73000n   -8.6834   -23.0667m  -13.8088m   -9.0752m 
    1.74000n   -8.7147   -22.6046m  -13.3583m   -8.9064m 
    1.75000n   -8.7460   -22.1424m  -12.9078m   -8.7376m 
    1.76000n   -8.7773   -21.6802m  -12.4574m   -8.5688m 
    1.77000n   -8.8086   -21.2180m  -12.0069m   -8.4000m 
    1.78000n   -8.8399   -20.7558m  -11.5564m   -8.2312m 
    1.79000n   -8.8712   -20.2937m  -11.1060m   -8.0624m 
    1.80000n   -8.9025   -19.8315m  -10.6555m   -7.8936m 
    1.81000n   -8.9338   -19.3693m  -10.2050m   -7.7248m 
    1.82000n   -8.9651   -18.9071m   -9.7545m   -7.5560m 
    1.83000n   -8.9964   -18.4450m   -9.3041m   -7.3872m 
    1.84000n   -9.0277   -17.9828m   -8.8536m   -7.2184m 
    1.85000n   -9.0590   -17.5206m   -8.4031m   -7.0496m 
    1.86000n   -9.0903   -17.0584m   -7.9527m   -6.8808m 
    1.87000n   -9.1216   -16.5962m   -7.5022m   -6.7120m 
    1.88000n   -9.1529   -16.1341m   -7.0517m   -6.5432m 
    1.89000n   -9.1842   -15.6719m   -6.6012m   -6.3744m 
    1.90000n   -9.2155   -15.2097m   -6.1508m   -6.2056m 
    1.91000n   -9.2412   -14.8528m   -5.8268m   -6.0157m 
    1.92000n   -9.2595   -14.6373m   -5.6726m   -5.7975m 
    1.93000n   -9.2777   -14.4218m   -5.5184m   -5.5793m 
    1.94000n   -9.2960   -14.2063m   -5.3642m   -5.3611m 
    1.95000n   -9.3143   -13.9908m   -5.2101m   -5.1429m 
    1.96000n   -9.3325   -13.7753m   -5.0559m   -4.9247m 
    1.97000n   -9.3508   -13.5598m   -4.9017m   -4.7065m 
    1.98000n   -9.3691   -13.3443m   -4.7476m   -4.4883m 
    1.99000n   -9.3874   -13.1288m   -4.5934m   -4.2701m 
    2.00000n   -9.4056   -12.9133m   -4.4392m   -4.0519m 
    2.01000n   -9.4239   -12.6978m   -4.2851m   -3.8337m 
    2.02000n   -9.4422   -12.4823m   -4.1309m   -3.6155m 
    2.03000n   -9.4604   -12.2668m   -3.9767m   -3.3973m 
    2.04000n   -9.4787   -12.0513m   -3.8226m   -3.1791m 
    2.05000n   -9.4970   -11.8358m   -3.6684m   -2.9609m 
    2.06000n   -9.5152   -11.6203m   -3.5142m   -2.7427m 
    2.07000n   -9.5335   -11.4048m   -3.3601m   -2.5246m 
    2.08000n   -9.5518   -11.1893m   -3.2059m   -2.3064m 
    2.09000n   -9.5701   -10.9738m   -3.0517m   -2.0882m 
